# GHz S RI R 50
! S-Parameters data
! Freq   reS11   imS11   reS12   imS12   reS13   imS13
!        reS21   imS21   reS22   imS22   reS23   imS23
!        reS31   imS31   reS32   imS32   reS33   imS33
!     
1.7000000000                    -0.0004370756           0.1200865380           0.1557423307          -0.6340570101           0.3092556841          -0.5933212501
                                 0.1558639640          -0.6341911762           0.0507792421          -0.0664935330           0.0667522993          -0.1372803893
                                 0.3096739772          -0.5935938688           0.0665719352          -0.1374976579           0.0323488561          -0.0352846996
1.7050000000                    -0.0000648371           0.1198501879           0.1557793431          -0.6343324625           0.3074945504          -0.5950462481
                                 0.1558855900          -0.6343700780           0.0508439585          -0.0665708966           0.0656719792          -0.1365367122
                                 0.3075585655          -0.5945663444           0.0658378270          -0.1370262704           0.0322988417          -0.0363985963
1.7100000000                    -0.0005246642           0.1196962931           0.1556065796          -0.6345796097           0.3047523646          -0.5963270836
                                 0.1564794871          -0.6345617052           0.0509154094          -0.0664045576           0.0651019551          -0.1353433418
                                 0.3057128889          -0.5964617581           0.0653516636          -0.1356635197           0.0325297661          -0.0368369083
1.7150000000                     0.0001468480           0.1204719506           0.1566261707          -0.6346675419           0.3025290317          -0.5961868230
                                 0.1556838309          -0.6348315477           0.0510289137          -0.0664194460           0.0640768418          -0.1344858004
                                 0.3034266118          -0.5971467551           0.0645458115          -0.1349579884           0.0327022148          -0.0378506500
1.7200000000                    -0.0003919838           0.1200691869           0.1563436947          -0.6334352527           0.3005250244          -0.5977493178
                                 0.1563138928          -0.6346123318           0.0507072006          -0.0666097399           0.0632553758          -0.1334327298
                                 0.3016314209          -0.5981404938           0.0636634351          -0.1338423800           0.0330418917          -0.0384915584
1.7250000000                    -0.0003245448           0.1194496077           0.1559564695          -0.6340793253           0.2984807390          -0.5996954554
                                 0.1557452411          -0.6343860736           0.0509938656          -0.0662232566           0.0628767028          -0.1323103171
                                 0.2989228187          -0.5997566983           0.0631056661          -0.1326724800           0.0333976533          -0.0390516706
1.7300000000                    -0.0004179133           0.1202855599           0.1569187775          -0.6335526561           0.2961854282          -0.6000784972
                                 0.1555985247          -0.6328641437           0.0508710081          -0.0664637942           0.0624009721          -0.1312368060
                                 0.2964869858          -0.6001988363           0.0626672183          -0.1314947531           0.0339084763          -0.0396837316
1.7350000000                    -0.0006010675           0.1199602234           0.1560670152          -0.6345329754           0.2939032366          -0.6016481839
                                 0.1559574926          -0.6342087588           0.0507365894          -0.0666483595           0.0617333958          -0.1301580283
                                 0.2946423202          -0.6018325470           0.0617879936          -0.1302950430           0.0340751404          -0.0401718864
1.7400000000                    -0.0001261035           0.1201006119           0.1559072194          -0.6349799241           0.2921181168          -0.6033976677
                                 0.1557885743          -0.6349986985           0.0509465537          -0.0666260479           0.0608724215          -0.1292053496
                                 0.2920812513          -0.6028551431           0.0607649652          -0.1292876800           0.0343298254          -0.0405361330
1.7450000000                     0.0000126064           0.1192492352           0.1555994809          -0.6343047616           0.2892091216          -0.6041290045
                                 0.1562577998          -0.6338290792           0.0507038979          -0.0665146053           0.0605582142          -0.1279893853
                                 0.2897015562          -0.6037955795           0.0606842887          -0.1282267561           0.0351792626          -0.0408622678
1.7500000000                    -0.0003224929           0.1199566042           0.1561670251          -0.6340751793           0.2869723736          -0.6054373807
                                 0.1564967891          -0.6340436575           0.0507385499          -0.0664067951           0.0602492762          -0.1270626153
                                 0.2878828286          -0.6044717218           0.0603701341          -0.1272526929           0.0355855338          -0.0415944002
1.7550000000                    -0.0004156658           0.1199872933           0.1562310705          -0.6342143317           0.2846783821          -0.6066294824
                                 0.1553896689          -0.6344199521           0.0508362771          -0.0664637566           0.0589980840          -0.1260509453
                                 0.2856934310          -0.6067639693           0.0593698466          -0.1264421781           0.0351932125          -0.0418078071
1.7600000000                    -0.0003559225           0.1197507298           0.1572414798          -0.6333224282           0.2822377101          -0.6072053145
                                 0.1552249153          -0.6337399124           0.0507072623          -0.0665211657           0.0582834319          -0.1249406778
                                 0.2827701743          -0.6068534568           0.0587244846          -0.1250911401           0.0357388454          -0.0423382612
1.7650000000                    -0.0006907110           0.1200203714           0.1560486343          -0.6347969986           0.2802206798          -0.6083313109
                                 0.1555657601          -0.6337806897           0.0509451904          -0.0664582685           0.0580640079          -0.1238413296
                                 0.2807514853          -0.6090281143           0.0582638124          -0.1242756054           0.0360528661          -0.0426337743
1.7700000000                    -0.0005788729           0.1199399016           0.1561463914          -0.6336787041           0.2778701931          -0.6100702547
                                 0.1557572553          -0.6351514499           0.0509032787          -0.0666864322           0.0580259643          -0.1226649398
                                 0.2778558805          -0.6092375096           0.0582191009          -0.1228013777           0.0367253449          -0.0428514887
1.7750000000                    -0.0004451577           0.1194798863           0.1560511683          -0.6334789182           0.2755476669          -0.6109176512
                                 0.1555538446          -0.6351198833           0.0507577122          -0.0665494357           0.0575080952          -0.1208672796
                                 0.2756961044          -0.6115443263           0.0575711679          -0.1215399323           0.0369711784          -0.0430859243
1.7800000000                    -0.0001899808           0.1197474222           0.1550920520          -0.6344637198           0.2732314817          -0.6116771431
                                 0.1563817979          -0.6342065764           0.0508242199          -0.0666111839           0.0569671523          -0.1202576143
                                 0.2731792377          -0.6123522030           0.0571862829          -0.1206620275           0.0371309391          -0.0432187838
1.7850000000                    -0.0002943132           0.1204620833           0.1567956403          -0.6350509631           0.2711936754          -0.6128587466
                                 0.1555500873          -0.6342243970           0.0509768873          -0.0665547824           0.0564784747          -0.1191830522
                                 0.2716157666          -0.6125550404           0.0566907857          -0.1194372713           0.0375014286          -0.0437113765
1.7900000000                    -0.0006923747           0.1204521580           0.1551347272          -0.6346374443           0.2688127649          -0.6140907014
                                 0.1554997024          -0.6343367216           0.0508588087          -0.0664075538           0.0559288251          -0.1187740289
                                 0.2693664218          -0.6140878242           0.0562640321          -0.1188863111           0.0372609877          -0.0444353243
1.7950000000                    -0.0003742456           0.1198936817           0.1561633150          -0.6342497088           0.2662961584          -0.6149500434
                                 0.1550943850          -0.6341360709           0.0507374836          -0.0666471202           0.0554301532          -0.1174539949
                                 0.2671197991          -0.6147631027           0.0556778933          -0.1177706243           0.0373184672          -0.0448417231
1.8000000000                    -0.0006750780           0.1199334389           0.1560825596          -0.6351030859           0.2641116665          -0.6155853598
                                 0.1547156461          -0.6331072334           0.0508199092          -0.0665956598           0.0552755609          -0.1165775590
                                 0.2645193662          -0.6160841152           0.0555327662          -0.1170044702           0.0379864093          -0.0454923150
1.8050000000                     0.0000054412           0.1200963932           0.1554853006          -0.6351768684           0.2619097723          -0.6169431079
                                 0.1556246851          -0.6346396324           0.0510227239          -0.0664664309           0.0543578011          -0.1154167304
                                 0.2621857534          -0.6173619658           0.0546363000          -0.1157025811           0.0379930775          -0.0457232814
1.8100000000                    -0.0003364014           0.1201564186           0.1563619862          -0.6340814848           0.2596049052          -0.6182294097
                                 0.1552102366          -0.6343025206           0.0509049208          -0.0666526034           0.0538675549          -0.1145587739
                                 0.2598970759          -0.6176839042           0.0541307598          -0.1148718703           0.0378807156          -0.0465759820
1.8150000000                    -0.0003997642           0.1199384642           0.1559809486          -0.6335459250           0.2572218557          -0.6188490524
                                 0.1557031633          -0.6340932401           0.0506410134          -0.0664316308           0.0534000671          -0.1134601305
                                 0.2576280055          -0.6184594932           0.0534909747          -0.1138073559           0.0378910182          -0.0472839304
1.8200000000                    -0.0005347128           0.1197636799           0.1548240252          -0.6334546549           0.2547799779          -0.6199890386
                                 0.1573932744          -0.6340925159           0.0509483720          -0.0666153861           0.0527095189          -0.1125194511
                                 0.2551756924          -0.6199515379           0.0527750376          -0.1128345164           0.0375351028          -0.0480974509
1.8250000000                    -0.0000617359           0.1200430282           0.1556786819          -0.6338773520           0.2526033834          -0.6211538363
                                 0.1560454906          -0.6351092735           0.0510861206          -0.0664751165           0.0519181666          -0.1117906604
                                 0.2526292084          -0.6204272186           0.0517439104          -0.1119123913           0.0372503330          -0.0488983648
1.8300000000                    -0.0012411483           0.1194035805           0.1555228576          -0.6339226169           0.2498816137          -0.6220413682
                                 0.1556088913          -0.6341384298           0.0507974091          -0.0667013790           0.0515210286          -0.1107093710
                                 0.2498831244          -0.6217221190           0.0516443267          -0.1107566104           0.0379513324          -0.0494471337
1.8350000000                    -0.0000162650           0.1199702451           0.1561836239          -0.6340294623           0.2475887264          -0.6226594259
                                 0.1551951525          -0.6334244097           0.0505686447          -0.0667006378           0.0510914823          -0.1094668648
                                 0.2474654434          -0.6222937361           0.0512798500          -0.1095809362           0.0383417264          -0.0496553219
1.8400000000                    -0.0006077506           0.1199326587           0.1563730914          -0.6340664143           0.2453334522          -0.6235710704
                                 0.1557908470          -0.6338687104           0.0507089812          -0.0664960174           0.0504028256          -0.1084930982
                                 0.2454965246          -0.6234782182           0.0504108100          -0.1085676423           0.0381439341          -0.0503746387
1.8450000000                    -0.0003032597           0.1201507071           0.1556592153          -0.6348458270           0.2431985309          -0.6248837643
                                 0.1568483579          -0.6347596211           0.0509310198          -0.0665122604           0.0497059229          -0.1076567612
                                 0.2424574116          -0.6244013972           0.0499313581          -0.1079640828           0.0378689155          -0.0515071921
1.8500000000                    -0.0000592641           0.1200275633           0.1556555268          -0.6333998188           0.2409978316          -0.6258610668
                                 0.1556301860          -0.6339758734           0.0509648005          -0.0662783798           0.0495853941          -0.1060553588
                                 0.2409165901          -0.6250368040           0.0493136374          -0.1064044697           0.0385442428          -0.0512431214
1.8550000000                    -0.0005647262           0.1198289443           0.1555757831          -0.6341277198           0.2386354632          -0.6266878303
                                 0.1570578732          -0.6340249962           0.0510308029          -0.0661687220           0.0488118750          -0.1050752245
                                 0.2387130327          -0.6273889961           0.0486157280          -0.1054222481           0.0382921672          -0.0523602512
1.8600000000                    -0.0004289431           0.1195191260           0.1557332544          -0.6341676610           0.2358688508          -0.6271755922
                                 0.1565504861          -0.6351956259           0.0508311177          -0.0664199569           0.0485833400          -0.1043620300
                                 0.2357064169          -0.6270213840           0.0485118619          -0.1048190874           0.0392309285          -0.0535134075
1.8650000000                    -0.0001700762           0.1200873462           0.1557684294          -0.6349805834           0.2339288622          -0.6284788440
                                 0.1547951902          -0.6339159296           0.0507807021          -0.0665852732           0.0477870759          -0.1030464006
                                 0.2335983344          -0.6278415925           0.0477712908          -0.1033150387           0.0390411936          -0.0536289804
1.8700000000                    -0.0006145788           0.1201695177           0.1553456178          -0.6345902273           0.2312453660          -0.6296558420
                                 0.1562773193          -0.6348428691           0.0510071955          -0.0665790331           0.0474286681          -0.1021989734
                                 0.2311592022          -0.6290325050           0.0473544752          -0.1022503701           0.0395816054          -0.0540328317
1.8750000000                    -0.0005952647           0.1200029015           0.1561088201          -0.6345719509           0.2288142347          -0.6298885594
                                 0.1561027838          -0.6347737244           0.0507167031          -0.0666584676           0.0469469417          -0.1001171179
                                 0.2287047235          -0.6298788888           0.0468608384          -0.1006028889           0.0397919335          -0.0544006013
1.8800000000                    -0.0006531497           0.1200581871           0.1562006280          -0.6339371486           0.2265034768          -0.6315297104
                                 0.1566276097          -0.6350218531           0.0508406977          -0.0664155954           0.0468137785          -0.0990503007
                                 0.2264106581          -0.6311315522           0.0468044047          -0.0994646204           0.0406377357          -0.0546570146
1.8850000000                    -0.0007666608           0.1195313004           0.1557340777          -0.6349157163           0.2240449624          -0.6325119512
                                 0.1552433096          -0.6336524373           0.0508233167          -0.0665663777           0.0464269437          -0.0983703059
                                 0.2245238423          -0.6323528970           0.0462183586          -0.0985648278           0.0409863962          -0.0555076292
1.8900000000                    -0.0001934186           0.1197393137           0.1561390296          -0.6350505502           0.2209218540          -0.6328528735
                                 0.1558882226          -0.6337669040           0.0509205848          -0.0666362160           0.0461656507          -0.0975278176
                                 0.2216103583          -0.6331978922           0.0460612106          -0.0977410981           0.0415689235          -0.0560040737
1.8950000000                    -0.0004851318           0.1199127097           0.1553717815          -0.6340890121           0.2183641874          -0.6337634285
                                 0.1559167643          -0.6344575559           0.0505942093          -0.0666778360           0.0454237591          -0.0964073410
                                 0.2192489680          -0.6338484530           0.0452539279          -0.0969321765           0.0414749405          -0.0565407222
1.9000000000                    -0.0001177231           0.1197489969           0.1551470985          -0.6350097348           0.2160523583          -0.6345142260
                                 0.1559407130          -0.6343384906           0.0507565709          -0.0665133673           0.0450753333          -0.0954769605
