! File created by 'SoftPlot Measurement Presentation'
!
! SoftPlot Measurement Presentation
!
! Start 1.000000000000 GHz     Stop 4.000000000000 GHz     Points 201
!
!S11 = Input VSWR
!S22 = Output VSWR Port 2
!S33 = Output VSWR Port 3
!S44 = Output VSWR Port 4
!S12 = (Actually S55) Output VSWR Port 5
!S21 = Insertion Loss Port 2
!S31 = Insertion Loss Port 3
!S41 = Insertion Loss Port 4
!S13 = (Actually S51) Insertion Loss Port 5
!S32 = Isolation from ports 2 to 3
!S34 = Isolation from ports 3 to 4
!S14 = (Actually S45) Isolation from ports 4 to 5
!
# MHZ S RI R 50
! S-Parameter data...
! F S11 S12 ... S1n
!   S21 S22 ... S2n
!   ...
!   Sn1 Sn2 ... Snn
1000.000000000000	0.166236900000	0.045036300000	-0.058326720000	0.054553990000	0.465484600000	0.114288300000	-0.019922260000	0.049671170000
		0.468505900000	0.102935800000	-0.056690220000	0.063365940000	0.166236900000	0.045036300000	0.166236900000	0.045036300000
		0.467468300000	0.107696500000	-0.024574280000	0.051410680000	-0.064682010000	0.051647190000	-0.010312560000	0.014749530000
		0.467529300000	0.110412600000	0.166236900000	0.045036300000	0.166236900000	0.045036300000	-0.066944120000	0.051773070000
1015.000000000000	0.160850500000	0.026573200000	-0.054412840000	0.059173580000	0.478179900000	0.066589400000	-0.014184950000	0.048738480000
		0.478332500000	0.060791000000	-0.050693510000	0.068134310000	0.160850500000	0.026573200000	0.160850500000	0.026573200000
		0.478057900000	0.064880400000	-0.018386840000	0.049907680000	-0.059471130000	0.056804660000	-0.006246567000	0.014978410000
		0.475769000000	0.069488500000	0.160850500000	0.026573200000	0.160850500000	0.026573200000	-0.062705990000	0.056854250000
1030.000000000000	0.152183500000	0.010627700000	-0.047626500000	0.062583920000	0.483322100000	0.025116000000	-0.007602692000	0.046453480000
		0.482223500000	0.014740000000	-0.044578550000	0.072990420000	0.152183500000	0.010627700000	0.152183500000	0.010627700000
		0.480529800000	0.023590100000	-0.011758800000	0.048507690000	-0.053848270000	0.061058040000	-0.002558231000	0.014354710000
		0.484756500000	0.023819000000	0.152183500000	0.010627700000	0.152183500000	0.010627700000	-0.056747440000	0.060241700000
1045.000000000000	0.143150300000	-0.004234314000	-0.041587830000	0.065479280000	0.487243700000	-0.020660400000	-0.001300812000	0.044044490000
		0.485534700000	-0.024291990000	-0.038673400000	0.075935360000	0.143150300000	-0.004234314000	0.143150300000	-0.004234314000
		0.486908000000	-0.021545410000	-0.005531311000	0.046188350000	-0.046966550000	0.064495090000	0.000793457000	0.013290410000
		0.486145000000	-0.021545410000	0.143150300000	-0.004234314000	0.143150300000	-0.004234314000	-0.050674440000	0.063846590000
1060.000000000000	0.130584700000	-0.016922000000	-0.034904480000	0.068279270000	0.481079100000	-0.066040040000	0.004367830000	0.040271760000
		0.483551000000	-0.071899410000	-0.031906130000	0.077758790000	0.130584700000	-0.016922000000	0.130584700000	-0.016922000000
		0.477081300000	-0.071533200000	0.000282290000	0.042980190000	-0.040626530000	0.066802980000	0.003703117000	0.011195180000
		0.476867700000	-0.069824220000	0.130584700000	-0.016922000000	0.130584700000	-0.016922000000	-0.044021610000	0.066139220000
1075.000000000000	0.117485000000	-0.027038570000	-0.028137210000	0.069065090000	0.465179400000	-0.109924300000	0.009521480000	0.036205290000
		0.469223000000	-0.118499800000	-0.024967190000	0.080101010000	0.117485000000	-0.027038570000	0.117485000000	-0.027038570000
		0.470962500000	-0.111084000000	0.005800250000	0.039161680000	-0.034938810000	0.068477630000	0.006118774000	0.008699417000
		0.475967400000	-0.112594600000	0.117485000000	-0.027038570000	0.117485000000	-0.027038570000	-0.038055420000	0.067398070000
1090.000000000000	0.103504200000	-0.036102290000	-0.022373200000	0.068771360000	0.460601800000	-0.158935500000	0.014696120000	0.031806950000
		0.460052500000	-0.165679900000	-0.017814640000	0.080375670000	0.103504200000	-0.036102290000	0.103504200000	-0.036102290000
		0.461151100000	-0.158630400000	0.010732650000	0.034912110000	-0.027622220000	0.068290710000	0.007786274000	0.006007671000
		0.462921100000	-0.154632600000	0.103504200000	-0.036102290000	0.103504200000	-0.036102290000	-0.032226560000	0.067352290000
1105.000000000000	0.089157100000	-0.041305540000	-0.015888210000	0.068443300000	0.440643300000	-0.197509800000	0.018517490000	0.026202200000
		0.440368700000	-0.204803500000	-0.010990140000	0.078186040000	0.089157100000	-0.041305540000	0.089157100000	-0.041305540000
		0.444610600000	-0.199249300000	0.015520100000	0.029555320000	-0.021404270000	0.068374630000	0.008561611000	0.002632618000
		0.443786600000	-0.198394800000	0.089157100000	-0.041305540000	0.089157100000	-0.041305540000	-0.026107790000	0.067501070000
1120.000000000000	0.074283600000	-0.044563290000	-0.010051730000	0.065525050000	0.422332800000	-0.240005500000	0.021862030000	0.020320890000
		0.419342000000	-0.249435400000	-0.005367279000	0.077846530000	0.074283600000	-0.044563290000	0.074283600000	-0.044563290000
		0.425079300000	-0.242874100000	0.018800740000	0.024124150000	-0.015487670000	0.066799160000	0.008649826000	-0.000604629500
		0.426300000000	-0.236022900000	0.074283600000	-0.044563290000	0.074283600000	-0.044563290000	-0.020580290000	0.065505980000
1135.000000000000	0.060302730000	-0.045169830000	-0.005031586000	0.064338680000	0.395492600000	-0.277420000000	0.024187090000	0.014137270000
		0.392303500000	-0.279068000000	0.000831600000	0.075149540000	0.060302730000	-0.045169830000	0.060302730000	-0.045169830000
		0.392791700000	-0.277236900000	0.021675110000	0.018264770000	-0.010520940000	0.064445500000	0.007898808000	-0.003681660000
		0.398376500000	-0.276184100000	0.060302730000	-0.045169830000	0.060302730000	-0.045169830000	-0.015201570000	0.063381200000
1150.000000000000	0.047082900000	-0.044109340000	-0.000167846700	0.060823440000	0.370758100000	-0.321044900000	0.025867460000	0.008260730000
		0.370513900000	-0.318817100000	0.005958560000	0.072113040000	0.047082900000	-0.044109340000	0.047082900000	-0.044109340000
		0.364837600000	-0.316864000000	0.023786540000	0.012281420000	-0.004856110000	0.061635970000	0.006309986000	-0.006292343000
		0.373321500000	-0.305328400000	0.047082900000	-0.044109340000	0.047082900000	-0.044109340000	-0.010314940000	0.060586930000
1165.000000000000	0.035001750000	-0.040628430000	0.002880100000	0.057775500000	0.339599600000	-0.347503700000	0.026943210000	0.001884460000
		0.336364700000	-0.356201200000	0.009895320000	0.069900510000	0.035001750000	-0.040628430000	0.035001750000	-0.040628430000
		0.342346200000	-0.353027300000	0.025247570000	0.006208420000	-0.000936508200	0.058891300000	0.004092216000	-0.008921623000
		0.344574000000	-0.347442600000	0.035001750000	-0.040628430000	0.035001750000	-0.040628430000	-0.007587433000	0.057674410000
1180.000000000000	0.024400710000	-0.035739900000	0.006395340000	0.054296490000	0.310119600000	-0.376586900000	0.027017590000	-0.004020691000
		0.305603000000	-0.380920400000	0.014144900000	0.064701080000	0.024400710000	-0.035739900000	0.024400710000	-0.035739900000
		0.310241700000	-0.379272500000	0.025718690000	0.000398640000	0.002792360000	0.055387500000	0.001380920000	-0.010569570000
		0.313842800000	-0.377014200000	0.024400710000	-0.035739900000	0.024400710000	-0.035739900000	-0.003797531000	0.054677960000
1195.000000000000	0.015020370000	-0.029384610000	0.009103780000	0.050146100000	0.272064200000	-0.404602100000	0.026222230000	-0.009937286000
		0.267364500000	-0.410217300000	0.016712190000	0.062086110000	0.015020370000	-0.029384610000	0.015020370000	-0.029384610000
		0.273681600000	-0.407531700000	0.025245670000	-0.005943298000	0.005439760000	0.051807400000	-0.001801968000	-0.011737350000
		0.277435300000	-0.402282700000	0.015020370000	-0.029384610000	0.015020370000	-0.029384610000	-0.001716614000	0.051887510000
1210.000000000000	0.007852550000	-0.022073750000	0.010833740000	0.046978000000	0.229476900000	-0.429336500000	0.024698260000	-0.015457150000
		0.226379400000	-0.433792100000	0.019451140000	0.058109280000	0.007852550000	-0.022073750000	0.007852550000	-0.022073750000
		0.228622400000	-0.430801400000	0.024284360000	-0.011287690000	0.008689880000	0.048408510000	-0.005024433000	-0.011941910000
		0.234726000000	-0.430740400000	0.007852550000	-0.022073750000	0.007852550000	-0.022073750000	0.000148770000	0.048769000000
1225.000000000000	0.002027512000	-0.014304640000	0.012437820000	0.043043140000	0.192901600000	-0.449539200000	0.022777560000	-0.020838740000
		0.179626500000	-0.450485200000	0.021039960000	0.053932190000	0.002027512000	-0.014304640000	0.002027512000	-0.014304640000
		0.188064600000	-0.453018200000	0.022536280000	-0.016981120000	0.009843830000	0.044055940000	-0.008459091000	-0.011132240000
		0.194931000000	-0.448761000000	0.002027512000	-0.014304640000	0.002027512000	-0.014304640000	0.002061840000	0.044725420000
1240.000000000000	-0.001516104000	-0.006198406000	0.013727190000	0.039512630000	0.146057100000	-0.456008900000	0.020514490000	-0.025905610000
		0.147079500000	-0.469421400000	0.022607800000	0.050025940000	-0.001516104000	-0.006198406000	-0.001516104000	-0.006198406000
		0.148864700000	-0.464187600000	0.020672800000	-0.022307400000	0.011009220000	0.040531160000	-0.011665340000	-0.009865761000
		0.151733400000	-0.462921100000	-0.001516104000	-0.006198406000	-0.001516104000	-0.006198406000	0.003150940000	0.042264940000
1255.000000000000	-0.003335118000	0.001965165000	0.014484410000	0.036424640000	0.104309100000	-0.471374500000	0.017490390000	-0.030136110000
		0.096191400000	-0.478271500000	0.023351670000	0.046625140000	-0.003335118000	0.001965165000	-0.003335118000	0.001965165000
		0.104797400000	-0.476806600000	0.017856600000	-0.027017590000	0.012023930000	0.036542890000	-0.014564510000	-0.007833481000
		0.104187000000	-0.471984900000	-0.003335118000	0.001965165000	-0.003335118000	0.001965165000	0.003211980000	0.039207460000
1270.000000000000	-0.003376007000	0.009435654000	0.013774870000	0.032947540000	0.056640600000	-0.483825700000	0.013874050000	-0.034561160000
		0.049011200000	-0.485229500000	0.023429870000	0.042966840000	-0.003376007000	0.009435654000	-0.003376007000	0.009435654000
		0.057678200000	-0.486755400000	0.014801030000	-0.030975340000	0.012252810000	0.033569340000	-0.016949650000	-0.004773140000
		0.058837900000	-0.483398400000	-0.003376007000	0.009435654000	-0.003376007000	0.009435654000	0.003694530000	0.036214830000
1285.000000000000	-0.002274513000	0.015951160000	0.013875010000	0.030069350000	0.011352500000	-0.484863300000	0.010181430000	-0.038200380000
		0.003356900000	-0.486938500000	0.023324970000	0.039319990000	-0.002274513000	0.015951160000	-0.002274513000	0.015951160000
		0.009399400000	-0.486633300000	0.011066440000	-0.035152440000	0.011466030000	0.030194280000	-0.018558500000	-0.001459122000
		0.012268100000	-0.485290500000	-0.002274513000	0.015951160000	-0.002274513000	0.015951160000	0.003105160000	0.033853530000
1300.000000000000	0.000413890000	0.022407530000	0.012613300000	0.027643200000	-0.032012940000	-0.485321000000	0.006240840000	-0.041271210000
		-0.038558960000	-0.485076900000	0.023298260000	0.036375050000	0.000413890000	0.022407530000	0.000413890000	0.022407530000
		-0.030548100000	-0.486389200000	0.007059100000	-0.038957600000	0.011497500000	0.027371410000	-0.019817350000	0.001938820000
		-0.030731200000	-0.484008800000	0.000413890000	0.022407530000	0.000413890000	0.022407530000	0.002234460000	0.031009670000
1315.000000000000	0.004299160000	0.026961330000	0.011999130000	0.024511340000	-0.076904300000	-0.478881800000	0.002079010000	-0.043691640000
		-0.081741330000	-0.478851300000	0.022264480000	0.033660890000	0.004299160000	0.026961330000	0.004299160000	0.026961330000
		-0.078384400000	-0.481094400000	0.003143310000	-0.041685100000	0.010716440000	0.024550440000	-0.019917490000	0.005743030000
		-0.073440550000	-0.477264400000	0.004299160000	0.026961330000	0.004299160000	0.026961330000	0.002150540000	0.028920170000
1330.000000000000	0.008632660000	0.030496600000	0.011670110000	0.022540090000	-0.119049100000	-0.471283000000	-0.002454758000	-0.046115880000
		-0.130859400000	-0.473358200000	0.021090510000	0.030638690000	0.008632660000	0.030496600000	0.008632660000	0.030496600000
		-0.123870800000	-0.474334700000	-0.001941681000	-0.044523240000	0.008821490000	0.021897320000	-0.019355770000	0.009961130000
		-0.117507900000	-0.474090600000	0.008632660000	0.030496600000	0.008632660000	0.030496600000	0.000861170000	0.026954650000
1345.000000000000	0.013231280000	0.032085420000	0.009870530000	0.020519260000	-0.163818400000	-0.458984400000	-0.007478714000	-0.047971730000
		-0.172149700000	-0.457824700000	0.019893650000	0.028581620000	0.013231280000	0.032085420000	0.013231280000	0.032085420000
		-0.169158900000	-0.460388200000	-0.006544113000	-0.046365740000	0.007845880000	0.019487380000	-0.018120770000	0.013532640000
		-0.164306600000	-0.460571300000	0.013231280000	0.032085420000	0.013231280000	0.032085420000	-0.000642776500	0.025753970000
1360.000000000000	0.018089290000	0.032535550000	0.008333210000	0.018676760000	-0.201416000000	-0.439453100000	-0.012001040000	-0.048721310000
		-0.210998500000	-0.435668900000	0.017979620000	0.026504520000	0.018089290000	0.032535550000	0.018089290000	0.032535550000
		-0.206726100000	-0.438659700000	-0.011390690000	-0.047241210000	0.006155970000	0.017479900000	-0.015834810000	0.016990660000
		-0.201355000000	-0.440734900000	0.018089290000	0.032535550000	0.018089290000	0.032535550000	-0.001975060000	0.024259570000
1375.000000000000	0.022424700000	0.032146450000	0.006870270000	0.017826080000	-0.244628900000	-0.417602500000	-0.017196660000	-0.049148560000
		-0.254028300000	-0.414062500000	0.017200470000	0.025899890000	0.022424700000	0.032146450000	0.022424700000	0.032146450000
		-0.247436500000	-0.419799800000	-0.016662600000	-0.048057560000	0.004179000000	0.016320230000	-0.013265610000	0.019948960000
		-0.243530300000	-0.419921900000	0.022424700000	0.032146450000	0.022424700000	0.032146450000	-0.003009796000	0.023602490000
1390.000000000000	0.027533530000	0.029878620000	0.005257610000	0.017041210000	-0.279632600000	-0.394439700000	-0.021717070000	-0.049179080000
		-0.288147000000	-0.394348100000	0.015105250000	0.024634360000	0.027533530000	0.029878620000	0.027533530000	0.029878620000
		-0.286621100000	-0.396148700000	-0.021419530000	-0.048137660000	0.002668858000	0.015288830000	-0.010219570000	0.022209170000
		-0.278503400000	-0.399047900000	0.027533530000	0.029878620000	0.027533530000	0.029878620000	-0.004454613000	0.023053170000
1405.000000000000	0.030477520000	0.026400570000	0.003933910000	0.016681670000	-0.315261800000	-0.363311800000	-0.027357100000	-0.047929760000
		-0.327194200000	-0.355407700000	0.013283730000	0.023874280000	0.030477520000	0.026400570000	0.030477520000	0.026400570000
		-0.322921800000	-0.365142800000	-0.026672360000	-0.047153470000	0.000861168000	0.014851090000	-0.006572723000	0.024130820000
		-0.313949600000	-0.357849100000	0.030477520000	0.026400570000	0.030477520000	0.026400570000	-0.005418777000	0.022694590000
1420.000000000000	0.033187870000	0.021762850000	0.002298360000	0.015942570000	-0.346588100000	-0.329193100000	-0.032140730000	-0.047140120000
		-0.363205000000	-0.331207300000	0.012115480000	0.023485180000	0.033187870000	0.021762850000	0.033187870000	0.021762850000
		-0.358276400000	-0.328231800000	-0.031461720000	-0.046138760000	-0.000598430600	0.014213090000	-0.002909660000	0.025455470000
		-0.354675300000	-0.334991500000	0.033187870000	0.021762850000	0.033187870000	0.021762850000	-0.006446838000	0.022499080000
1435.000000000000	0.035076140000	0.017391200000	0.001298900000	0.016548160000	-0.380767800000	-0.300293000000	-0.035610200000	-0.045145030000
		-0.385955800000	-0.293579100000	0.010961530000	0.023535730000	0.035076140000	0.017391200000	0.035076140000	0.017391200000
		-0.385192900000	-0.301086400000	-0.036048890000	-0.044425960000	-0.001725674000	0.014482980000	0.001536370000	0.025966640000
		-0.377319300000	-0.302734400000	0.035076140000	0.017391200000	0.035076140000	0.017391200000	-0.007475853000	0.023166660000
1450.000000000000	0.035524370000	0.011804580000	0.000239370000	0.015734670000	-0.404388400000	-0.266510000000	-0.039176940000	-0.043361660000
		-0.410034200000	-0.259124800000	0.008935930000	0.023279190000	0.035524370000	0.011804580000	0.035524370000	0.011804580000
		-0.408660900000	-0.265045200000	-0.039989470000	-0.042881010000	-0.003424168000	0.014213090000	0.005473140000	0.026122090000
		-0.406585700000	-0.268249500000	0.035524370000	0.011804580000	0.035524370000	0.011804580000	-0.008150101000	0.022974970000
1465.000000000000	0.033830640000	0.006290440000	-0.000618934600	0.016197200000	-0.427002000000	-0.225219700000	-0.043090820000	-0.040466310000
		-0.433960000000	-0.217163100000	0.008697510000	0.023618700000	0.033830640000	0.006290440000	0.033830640000	0.006290440000
		-0.431823700000	-0.221557600000	-0.044090270000	-0.040153500000	-0.004504681000	0.014526370000	0.009647370000	0.025188450000
		-0.429138200000	-0.227661100000	0.033830640000	0.006290440000	0.033830640000	0.006290440000	-0.008489609000	0.023847580000
1480.000000000000	0.031724930000	0.001008990000	-0.000958442700	0.016045570000	-0.445159900000	-0.184783900000	-0.045860290000	-0.037738800000
		-0.454223600000	-0.170898400000	0.007789610000	0.023930550000	0.031724930000	0.001008990000	0.031724930000	0.001008990000
		-0.447082500000	-0.180908200000	-0.046775820000	-0.037300110000	-0.005280018000	0.014634610000	0.013015750000	0.023403170000
		-0.447631800000	-0.181518600000	0.031724930000	0.001008990000	0.031724930000	0.001008990000	-0.008788109000	0.023591040000
1495.000000000000	0.027986530000	-0.004419327000	-0.001314163000	0.015704150000	-0.455322300000	-0.141082800000	-0.047952650000	-0.034572600000
		-0.459350600000	-0.134719800000	0.007366180000	0.024069790000	0.027986530000	-0.004419327000	0.027986530000	-0.004419327000
		-0.459777800000	-0.142593400000	-0.049854280000	-0.033823010000	-0.005857468000	0.014489170000	0.016255380000	0.021248820000
		-0.456375100000	-0.143234300000	0.027986530000	-0.004419327000	0.027986530000	-0.004419327000	-0.008598328000	0.023504260000
1510.000000000000	0.022986410000	-0.008511543000	-0.001924515000	0.016189580000	-0.480621300000	-0.099731450000	-0.051189420000	-0.032886510000
		-0.482269300000	-0.091003420000	0.006535530000	0.024338720000	0.022986410000	-0.008511543000	0.022986410000	-0.008511543000
		-0.481872600000	-0.096496580000	-0.053718570000	-0.031471250000	-0.006703377000	0.014832500000	0.019821170000	0.018924710000
		-0.480865500000	-0.097595210000	0.022986410000	-0.008511543000	0.022986410000	-0.008511543000	-0.009077072000	0.023892400000
1525.000000000000	0.016861920000	-0.012065890000	-0.002561569000	0.016008380000	-0.481124900000	-0.051971440000	-0.053062440000	-0.030015950000
		-0.483367900000	-0.042068480000	0.005738260000	0.024510380000	0.016861920000	-0.012065890000	0.016861920000	-0.012065890000
		-0.481369000000	-0.048675540000	-0.056247710000	-0.028076170000	-0.007766724000	0.014869210000	0.022356030000	0.015757560000
		-0.482543900000	-0.055511470000	0.016861920000	-0.012065890000	0.016861920000	-0.012065890000	-0.009315491000	0.023915290000
1540.000000000000	0.009958744000	-0.014306550000	-0.003534317000	0.015707020000	-0.482727100000	-0.010650630000	-0.055339810000	-0.027063370000
		-0.484634400000	-0.002151489000	0.005591390000	0.024779320000	0.009958744000	-0.014306550000	0.009958744000	-0.014306550000
		-0.484756500000	-0.005889893000	-0.057704930000	-0.024631500000	-0.008316040000	0.015225890000	0.024200440000	0.012452130000
		-0.482238800000	-0.009841919000	0.009958744000	-0.014306550000	0.009958744000	-0.014306550000	-0.009675026000	0.023644450000
1555.000000000000	0.002483845000	-0.015195370000	-0.004191875000	0.015475270000	-0.481735200000	0.037750200000	-0.057035450000	-0.023778920000
