! Case1 FM 13SI 20 T D13SI L10.s4p reproduced with file name default.s4p, with permission of Tyco Electronics
!
!	The ports are defined by
!	
!	Port 1 -----> |      	| -----> Port 2
!	              |   DUT	| 
!	Port 3 -----> |      	| -----> Port 4
!
!
! FILE: \\descartes\10gec\Vendors\Tyco\Tyco Aug 31 04\Test 1\Test1 FM 13SI 20 T D13SI L10.s4p
!
! This data is being provided to the industry for analysis for the IEEE 802.3ap Backplane 
! Ethernet Task Force.
! 
! Disclaimer:  While Tyco Electronics has made every reasonable effort to ensure the accuracy
! of  the information provided herein, Tyco Electronics does not guarantee that it is error-free, 
! nor does Tyco Electronics make any other representation, warranty, or guarantee that the 
! information is accurate, correct, reliable or current.  Tyco Electronics reserves the right to
! make any adjustments to the information contained herein at any time without notice.  Tyco 
! Electronics expressly disclaims all implied warranties regarding the information contained 
! herein, including but not limited to any implied warranties of merchantability or fitness for a 
! particular purpose.
!
! Note 1 – This data is representative of the implementation that was measured only.  
! Backplane channel behavior is highly sensitive to implementation, which includes board 
! materials, trace geometry information, connector pin out, layer connection, use of stub removal 
! techniques, such as backdrilling or blind/buried vias, etc.
!
! Note 2 - Crosstalk measurements are representative of the specific ATCA test cases only.  Crosstalk may
! vary depending on the pinout that is being considered by the user.  Assumptions regarding crosstalk 
! behavior of the Z-PACK HM-Zd should be reviewed with Tyco Electronics prior to any simulations 
! to permit assessment of the validity of the assumption. 
!
! Note 3 – The backplanes and line cards were designed independently of each other.  
! Furthermore, the SMA line cards were designed for another pinout.  Hence, there is no 
! optimization to limit the overall total skew of the system.  
!
! This file,"Case1 FM 13SI 20 T D13SI L10.s4p", should be used in conjunction with the following files – 
!	Case1 FM 13SI 20 N1 D13SI L10.s4p - NEXT Aggressor N1 
!	Case1 FM 13SI 20 N2 D13SI L10.s4p - NEXT Aggressor N2
!	Case1 FM 13SI 20 F D13SI L10.s4p - FEXT Aggressor
!
! Tyco Electronics Test Case#1, Forward Channel Response
!	Test Backplane - Kaparel Full Mesh ATCA Backplane
!		Length - 20.5" (520.7mm)
!		Trace Width - 0.00475" (0.12065mm)
!		Material - 4000-13SI 
! 		Use of stub removal techniques - No. Bottom stripline layer connection
!		
!	SMA Line Card
!		Length - 10" (254mm)
!		Trace Width - 0.006" (0.1524mm)
! 		Material - 4000-13SI (Improved FR-4)
!		Use of stub removal techniques - Launch structure counterbored where necessary. 
!		Bottom and near-bottom connections at connector on line cards.
!
! The backplane used for this testing was from 
! Kaparel Corporation
! Contact – Mike Peters
! 519.725.0101
! Email – mpeters@kaparel.com
!
! The line cards used for this testing were from 
! Tyco Electronics
! Contact – John D’Ambrosia
! Email – john.dambrosia@tycoelectronics.com
!
! This data was taken by the University of New Hampshire InterOperability Laboratory (UNH-
! IOL) during the week of September 13, 2004.  The test setup consisted of the following –
! 		- Agilent 8720ES with N4418A test set  ---  
!	- Also known as the Agilent N1951A 20GHz Physical Layer Test 
!	   System (S/N US0020201)
!	- Calibrations are SOLT (short open load thru)  to 26GHz cal set  into 50ohm
!	   loads at the end of SMA cables.   
! 	- No de-embedding of the SMA’s or line cards were attempted / included. 
!	- Equipment Settings done in accordance with the latest guidelines from the 
!	   IEEE 802.3ap Channel Ad Hoc at the time of testing, except where noted - 
! 		- Step Size - 10 MHz
!		- IF BW – 300 Hz
!		- Launch Power - -5 dBm
!		- Averaging – was not supported with equipment / software 
!
!	Port 1 -----> |      	| -----> Port 2
!		          |  DUT	|
!	Port 3 -----> |		    | -----> Port 4
!		
! For further information regarding this testing, please contact
! UNH – IOL
! Contact – Bob Noseworthy
! 603-862-4342 {Office}
! 603-862-0205 {10GEC Lab}
! 10 Gigabit Ethernet Consortium Manager
! Email - ren@iol.unh.edu
! 
! For further information regarding the Z-PACK HM-Zd connector, please contact:
! Tyco Electronics
! Contact – Bob Hnatuck
! 717-592-4168
! Email – rhnatuck@tycoelectronics.com
!
! Tyco Electronics would like to express its gratitude to the following individuals for making the 
! availability of this data possible –
! UNH-IOL- Bob Noseworthy and Jeff Lapak
! Kaparel Corporation – Jacques Lourde and Robert Jardon
!
!
# MHZ S DB R 50.00
!
! FREQ                  S11                         S12                         S13                         S14
!                       S21                         S22                         S23                         S24
!                       S31                         S32                         S33                         S34
!                       S41                         S42                         S43                         S44
!                  DB        ANG               DB        ANG               DB        ANG               DB        ANG               
  50.000         -16.78   -53.742911          -1.24  -128.292092         -18.44   -36.171606         -41.37    38.465455    
                  -1.20  -128.035161         -16.64   -56.947328         -42.36    39.239426         -18.39   -35.756244    
                 -18.52   -36.182501         -41.69    35.615473         -17.24   -53.485885          -1.22  -128.103490    
                 -42.49    42.944907         -18.42   -35.874225          -1.21  -128.167996         -17.05   -57.188349    

  60.000         -16.97   -70.268141          -1.31  -153.035322         -18.45   -60.619003         -42.93    -2.168050    
                  -1.30  -153.043132         -16.82   -75.345710         -43.04    -2.875578         -18.44   -59.795601    
                 -18.50   -59.874298         -44.21     1.158475         -17.38   -71.524659          -1.30  -153.213973    
                 -43.29    -0.788789         -18.43   -59.533719          -1.30  -153.149967         -17.36   -75.125457    

  70.000         -17.32   -88.713888          -1.38  -178.000844         -19.17   -83.863815         -44.09   -45.619343    
                  -1.37  -177.929695         -17.29   -93.529426         -44.54   -43.751567         -19.08   -82.745333    
                 -19.19   -84.429724         -44.67   -43.043649         -17.84   -89.756399          -1.37  -178.043629    
                 -44.35   -39.879517         -19.10   -82.709615          -1.38  -178.065265         -17.88   -92.836214    

  80.000         -18.00  -106.715878          -1.44   157.139870         -20.42  -107.345228         -47.28   -88.117196    
                  -1.44   157.112057         -18.03  -111.459103         -45.34   -93.804641         -20.31  -105.668659    
                 -20.38  -107.700600         -45.61   -92.974621         -18.69  -108.189804          -1.43   156.903309    
                 -46.22   -91.535138         -20.31  -105.798403          -1.44   156.980912         -18.57  -110.058909    

  90.000         -19.02  -125.432959          -1.49   132.143902         -22.40  -130.304179         -48.61  -144.518555    
                  -1.49   132.032546         -18.99  -129.678957         -46.59  -151.332169         -22.22  -127.607732    
                 -22.34  -131.017875         -47.02  -148.127954         -19.77  -127.055478          -1.49   132.012958    
                 -47.98  -149.947224         -22.19  -127.848630          -1.50   131.977200         -19.52  -127.673112    

 100.000         -20.60  -144.535899          -1.56   107.195350         -25.21  -153.214922         -47.09   147.850222    
                  -1.54   107.243544         -20.42  -148.199489         -45.95   153.277916         -24.97  -148.488033    
                 -25.18  -152.695660         -46.35   148.921445         -21.23  -146.493625          -1.54   106.996810    
                 -47.02   149.296749         -25.04  -148.150454          -1.53   107.135985         -20.84  -145.625877    

 110.000         -22.60  -164.368238          -1.61    82.236198         -29.79  -172.875250         -45.14    94.642459    
                  -1.60    82.211645         -22.39  -165.898459         -44.56    98.537792         -29.28  -164.280426    
                 -29.68  -172.925834         -45.18    98.164184         -23.16  -166.465871          -1.61    82.017049    
                 -44.51    94.338524         -29.27  -164.390291          -1.60    82.042386         -22.63  -163.537361    

 120.000         -25.74   177.558743          -1.67    57.204921         -38.66  -175.003077         -42.51    48.737123    
                  -1.67    57.176448         -25.35   177.354775         -42.42    49.825182         -35.87  -159.079049    
                 -38.42  -174.448437         -42.54    49.292681         -26.03   174.142887          -1.66    57.040665    
                 -42.57    47.548346         -35.89  -158.825045          -1.68    56.987287         -25.44   178.299189    

 130.000         -30.94   167.750137          -1.73    32.181231         -38.15   -85.546192         -40.19     6.865946    
                  -1.73    32.211087         -30.43   169.099920         -40.52     6.459915         -35.87  -104.244448    
                 -38.18   -85.739745         -40.52     6.882734         -30.53   158.594091          -1.73    32.120761    
                 -40.28     5.181553         -35.82  -104.209593          -1.73    31.978205         -29.98   165.912116    

 140.000         -36.35  -153.533618          -1.81     7.192219         -30.49   -93.191820         -39.09   -38.406033    
                  -1.82     7.205758         -35.53  -153.462221         -39.41   -37.187387         -29.97  -103.720466    
                 -30.45   -92.621437         -39.54   -38.354782         -36.87   178.539792          -1.81     7.104087    
                 -39.04   -37.191659         -29.99  -103.892833          -1.81     6.979558         -37.61  -168.403823    

 150.000         -31.08  -122.064709          -1.88   -17.627024         -27.16  -112.776587         -38.21   -67.545990    
                  -1.88   -17.630459         -30.61  -118.504243         -38.60   -68.176241         -26.99  -120.033825    
                 -27.19  -112.609015         -38.58   -67.738521         -33.55  -135.812764          -1.87   -17.844798    
                 -38.15   -67.428129         -26.98  -119.593118          -1.87   -17.904457         -32.66  -112.127118    

 160.000         -25.91  -134.653345          -1.96   -42.664660         -24.84  -135.240162         -36.79  -103.715579    
                  -1.96   -42.619966         -25.42  -129.097438         -37.45  -103.511205         -24.76  -140.084241    
                 -24.86  -135.242394         -37.37  -103.895431         -27.58  -143.497054          -1.97   -42.869690    
                 -36.90  -102.616814         -24.73  -140.260659          -1.95   -42.828078         -26.47  -121.203752    

 170.000         -22.85  -156.792528          -2.05   -67.537457         -23.37  -159.401556         -36.14  -138.900001    
                  -2.04   -67.483061         -22.38  -149.774885         -36.88  -140.191803         -23.24  -163.030578    
                 -23.38  -159.312530         -36.88  -140.443340         -24.01  -165.611054          -2.05   -67.676085    
                 -36.24  -138.514549         -23.21  -162.842908          -2.04   -67.732260         -23.04  -142.378240    

 180.000         -20.75   178.407217          -2.15   -92.254234         -22.31   176.157769         -36.15  -174.608304    
                  -2.16   -92.313386         -20.45  -173.673775         -36.81  -175.670730         -22.23   173.486479    
                 -22.36   176.548145         -36.81  -175.359960         -21.58   170.010410          -2.16   -92.672452    
                 -36.00  -173.873856         -22.21   173.436412          -2.15   -92.600921         -20.88  -166.675905    

 190.000         -19.37   153.589083          -2.25  -117.001153         -21.67   151.980559         -36.17   151.486350    
                  -2.25  -117.052125         -19.24   160.877426         -37.21   149.397433         -21.54   149.648808    
                 -21.67   152.219044         -37.01   149.288637         -19.96   144.618823          -2.25  -117.290464    
                 -36.25   151.885263         -21.54   149.957773          -2.25  -117.320322         -19.50   167.705918    

 200.000         -18.59   128.507548          -2.35  -141.563897         -21.28   128.145097         -36.96   119.724156    
                  -2.34  -141.684152         -18.60   134.680681         -38.11   116.928247         -21.20   126.309895    
                 -21.29   128.144532         -38.20   117.321278         -18.88   119.309750          -2.34  -141.917737    
                 -36.93   119.541575         -21.19   126.447627          -2.35  -141.889104         -18.72   141.397040    

 210.000         -18.24   103.706212          -2.42  -166.156517         -21.23   104.655889         -38.07    89.151239    
                  -2.42  -166.072430         -18.45   107.965336         -39.52    86.525373         -21.17   103.312554    
                 -21.23   104.717787         -39.52    87.005547         -18.33    94.458909          -2.43  -166.470337    
                 -38.03    88.995147         -21.15   103.404645          -2.42  -166.500016         -18.43   114.810305    

 220.000         -18.32    79.799951          -2.49   169.469361         -21.47    82.070705         -39.84    59.786725    
                  -2.49   169.442835         -18.75    81.129620         -41.55    59.258703         -21.51    81.148991    
                 -21.50    82.210459         -41.57    58.462580         -18.21    70.221731          -2.49   169.082117    
                 -39.76    59.748092         -21.47    81.192747          -2.48   169.045841         -18.58    88.094180    

 230.000         -18.97    55.831515          -2.52   144.947343         -22.20    59.512071         -42.57    45.186840    
                  -2.52   145.000797         -19.43    53.524526         -45.24    47.950339         -22.16    59.626302    
                 -22.19    59.748108         -45.95    45.071574         -18.60    46.275481          -2.53   144.666754    
                 -42.78    46.231729         -22.11    59.322969          -2.53   144.668929         -19.14    61.000866    

 240.000         -20.26    33.398093          -2.54   120.345009         -23.57    38.616006         -43.48    43.543292    
                  -2.55   120.339216         -20.76    24.824415         -45.28    59.933422         -23.49    38.433569    
                 -23.55    38.694881         -45.19    58.242779         -19.58    23.041924          -2.56   120.045680    
                 -43.44    43.882084         -23.50    38.261698          -2.56   120.080003         -20.30    33.859463    

 250.000         -22.35    12.868342          -2.57    95.639531         -26.01    20.395431         -41.26    39.722977    
                  -2.56    95.683134         -22.87    -4.507207         -41.60    50.961421         -25.90    20.080294    
                 -25.99    20.247803         -41.77    51.784611         -21.29     1.137337          -2.58    95.378550    
                 -41.30    38.704485         -25.90    19.979345          -2.58    95.357410         -22.20     6.725513    

 260.000         -25.73    -3.122330          -2.60    70.857479         -30.30    11.326467         -38.51    19.581038    
                  -2.60    70.899831         -26.14   -35.612153         -38.52    26.962813         -30.16    11.083649    
                 -30.30    10.929861         -38.48    27.745384         -24.12   -18.185329          -2.61    70.645355    
                 -38.53    19.684726         -30.15    11.264458          -2.60    70.624551         -25.15   -20.397460    

 270.000         -30.66    -4.711780          -2.64    45.916105         -35.14    45.058233         -36.33    -7.563880    
                  -2.64    45.978517         -31.74   -71.903733         -36.38    -3.390100         -34.82    44.168617    
                 -35.24    44.756311         -36.34    -2.979029         -28.64   -30.509643          -2.64    45.725087    
                 -36.35    -8.110396         -34.77    44.217986          -2.65    45.681292         -30.19   -45.950398    

 280.000         -33.25    33.320431          -2.71    21.047392         -29.57    77.205740         -34.89   -38.850885    
                  -2.71    21.086233         -43.21  -161.873806         -35.08   -35.782673         -29.37    74.962933    
                 -29.62    77.378092         -35.07   -35.664643         -34.99    -8.871399          -2.71    20.823584    
                 -34.90   -38.917706         -29.37    74.954406          -2.71    20.806385         -42.76   -56.478229    

 290.000         -28.80    49.368711          -2.79    -3.765711         -24.71    68.451179         -34.08   -70.148011    
                  -2.78    -3.703286         -33.71    83.393390         -34.36   -68.873980         -24.63    65.933021    
                 -24.73    68.614137         -34.35   -68.678047         -31.78    35.764380          -2.80    -4.020204    
                 -34.15   -70.353942         -24.61    65.809311          -2.79    -4.010468         -36.04    63.152958    

 300.000         -25.53    40.470644          -2.86   -28.467639         -21.78    50.664184         -33.83  -101.745764    
                  -2.88   -28.419050         -28.28    45.544517         -34.24  -100.974009         -21.73    48.207098    
                 -21.77    50.591208         -34.24  -101.282954         -27.17    32.033421          -2.88   -28.740763    
                 -33.86  -101.403059         -21.71    47.994164          -2.88   -28.767851         -29.17    41.666499    

 310.000         -23.56    25.554128          -2.96   -52.997763         -19.93    30.361275         -33.91  -131.080090    
                  -2.96   -53.032248         -25.28    13.902994         -34.54  -131.391052         -19.90    27.912918    
                 -19.92    30.345399         -34.47  -131.103768         -24.63    17.145136          -2.96   -53.386691    
                 -33.92  -131.182292         -19.91    27.677153          -2.96   -53.381713         -25.94    15.718232    

 320.000         -22.42     8.781613          -3.04   -77.486011         -18.87     9.328306         -34.26  -159.254629    
                  -3.04   -77.525745         -23.46   -15.326112         -35.15  -159.368527         -18.87     6.888266    
                 -18.90     9.417782         -35.11  -158.716034         -23.26    -0.171387          -3.04   -77.878237    
                 -34.25  -159.158770         -18.88     6.633437          -3.04   -77.922822         -24.09   -10.492833    

 330.000         -21.77    -7.891509          -3.10  -101.990860         -18.47   -11.900406         -34.71   174.729492    
                  -3.11  -101.989515         -22.32   -42.965226         -35.92   175.889259         -18.46   -14.648542    
                 -18.48   -11.583467         -35.90   175.706199         -22.58   -17.888060          -3.11  -102.389771    
                 -34.72   175.103815         -18.48   -14.563838          -3.11  -102.373354         -23.03   -35.958215    

